! Created Sat Mar 16 16:56:40 2024
! List of port names and net name(s): example Port n = <port_name> <net_name1> <net_name2> ...
! Port 1 = P1 P3 
! Port 2 = P2 P4 
! Port 3 = P3 P3 
! Port 4 = P4 P4 
# hz S ma R 50
! 4 Port Network Data from data block
! freq  magS11  angS11  magS12  angS12  magS13  angS13  magS14  angS14  
!       magS21  angS21  magS22  angS22  magS23  angS23  magS24  angS24  
!       magS31  angS31  magS32  angS32  magS33  angS33  magS34  angS34  
!       magS41  angS41  magS42  angS42  magS43  angS43  magS44  angS44  
!     
                 0    0.000147046985                  0     3.18165221e-08                  0        0.999852952                  0     3.18246636e-08                180
                   3.18165221e-08                  0     0.000216834097                  0     3.18246635e-08                180        0.999783166                  0
                      0.999852952                  0     3.18246635e-08                180     0.000147046985                  0     3.18165244e-08                  0
                   3.18246636e-08                180        0.999783166                  0     3.18165244e-08                  0     0.000216834097                  0

     1.6666675e+09       0.163300635         65.2321076      0.00444797919         42.3768475        0.980397289        -25.9443456      0.00305094627         92.8538008
                    0.00444797919         42.3768475        0.322382166          55.879531       0.0022832438         81.4884654        0.937793352        -38.8819301
                      0.980397289        -25.9443456       0.0022832438         81.4884654        0.163498538         59.0588663      0.00488590415         80.0035863
                    0.00305094627         92.8538008        0.937793352        -38.8819301      0.00488590415         80.0035863        0.322982802         43.6171834

      3.333334e+09       0.300886701         43.8815661      0.00629954552         4.10526846        0.944752986        -50.7792891      0.00819953132          57.231776
                    0.00629954552         4.10526846        0.514806361         29.2613032       0.0057196629         48.8173931        0.845645008        -72.3998646
                      0.944752986        -50.7792891       0.0057196629         48.8173931        0.301269398          31.913963       0.0103417391         75.2576504
                    0.00819953132          57.231776        0.845645008        -72.3998646       0.0103417391         75.2576504        0.515659795         4.17007717

     5.0000005e+09       0.404133125         23.2472991      0.00546537254        -28.7711144        0.904028395        -74.2696809       0.0133846128         20.8546209
                    0.00546537254        -28.7711144        0.587472039         7.49130843      0.00998658628          12.949502        0.795992105        -101.776767
                      0.904028395        -74.2696809      0.00998658628          12.949502        0.404465273         6.27858149        0.017092641         62.4013802
                     0.0133846128         20.8546209        0.795992105        -101.776767        0.017092641         62.4013802        0.587283721        -31.9648534

      6.666667e+09       0.469853398         3.27719007      0.00278623612        -64.6286247         0.87065516        -96.4793159       0.0176151003        -10.9776183
                    0.00278623612        -64.6286247        0.564223362        -11.2534418       0.0150690292        -22.6497999        0.810003601        -130.586946
                       0.87065516        -96.4793159       0.0150690292        -22.6497999        0.469976952         -17.567907       0.0219063189          41.816111
                     0.0176151003        -10.9776183        0.810003601        -130.586946       0.0219063189          41.816111        0.560431419         -69.715286

     8.3333335e+09       0.497776522        -16.5582651      0.00180044261         130.000672        0.853594969        -117.852579       0.0208566719        -37.0179874
                    0.00180044261         130.000672        0.437983093        -24.7516227       0.0208820703        -60.5813615        0.878779571        -163.132017
                      0.853594969        -117.852579       0.0208820703        -60.5813615        0.497830059        -39.8432897        0.019405352         18.1397295
                     0.0208566719        -37.0179874        0.878779571        -163.132017        0.019405352         18.1397295        0.423279544        -119.418321

             1e+10       0.485477863        -37.1610841      0.00688584911         78.7213194        0.858098206        -139.137824       0.0250695567        -57.4865726
                    0.00688584911         78.7213194        0.301739446        -7.40543471       0.0252388174         -103.44697        0.926654115         157.509193
                      0.858098206        -139.137824       0.0252388174         -103.44697        0.485882998        -61.0149952      0.00734378405         32.6311515
                     0.0250695567        -57.4865726        0.926654115         157.509193      0.00734378405         32.6311515        0.260629074         141.945687

